
T1F0C 000:034 SEGGER J-Link V6.00e Log File (0001ms, 0018ms total)
T1F0C 000:034 DLL Compiled: Aug  4 2016 09:37:38 (0001ms, 0018ms total)
T1F0C 000:034 Logging started @ 2016-11-22 16:54 (0001ms, 0018ms total)
T1F0C 000:035 JLINK_SetWarnOutHandler(...) (0000ms, 0018ms total)
T1F0C 000:035 JLINK_OpenEx(...)
Firmware: J-Link V9 compiled Aug  3 2016 18:50:44
Hardware: V9.10
S/N: 59190090
Feature(s): GDB, RDI, FlashBP, FlashDL, JFlash  returns O.K. (0012ms, 0030ms total)
T1F0C 000:047 JLINK_SetErrorOutHandler(...) (0000ms, 0030ms total)
T1F0C 000:047 JLINK_ExecCommand("ProjectFile = "F:\company_pro\×ÀÅÆÏµÍ³\´úÂë\SmartTable_V2.0\SmartTable_wifi_V2.1\Project\JLinkSettings.ini"", ...).   returns 0x00 (0085ms, 0115ms total)
T1F0C 000:135 JLINK_ExecCommand("Device = STM32F103RE", ...). Device "STM32F103RE" selected.  returns 0x00 (0003ms, 0118ms total)
T1F0C 000:138 JLINK_ExecCommand("DisableConnectionTimeout", ...).   returns 0x01 (0000ms, 0118ms total)
T1F0C 000:138 JLINK_GetHardwareVersion()  returns 0x16378 (0000ms, 0118ms total)
T1F0C 000:138 JLINK_GetDLLVersion()  returns 60005 (0000ms, 0118ms total)
T1F0C 000:138 JLINK_GetFirmwareString(...) (0000ms, 0118ms total)
T1F0C 000:146 JLINK_GetDLLVersion()  returns 60005 (0000ms, 0118ms total)
T1F0C 000:146 JLINK_GetCompileDateTime() (0000ms, 0118ms total)
T1F0C 000:148 JLINK_GetFirmwareString(...) (0000ms, 0118ms total)
T1F0C 000:150 JLINK_GetHardwareVersion()  returns 0x16378 (0000ms, 0118ms total)
T1F0C 000:160 JLINK_TIF_Select(JLINKARM_TIF_SWD)  returns 0x00 (0000ms, 0118ms total)
T1F0C 000:160 JLINK_SetSpeed(5000) (0001ms, 0119ms total)
T1F0C 000:161 JLINK_GetId() >0x108 TIF>Found SWD-DP with ID 0x1BA01477 >0x0D TIF> >0x28 TIF> >0x0D TIF> >0x28 TIF> >0x0D TIF> >0x28 TIF> >0x0D TIF> >0x28 TIF> >0x0D TIF> >0x21 TIF> >0x0D TIF> >0x28 TIF> >0x0D TIF> >0x28 TIF> >0x0D TIF> >0x28 TIF> >0x0D TIF> >0x21 TIF> >0x0D TIF> >0x21 TIF> >0x0D TIF> >0x28 TIF> >0x0D TIF> >0x21 TIF> >0x0D TIF> >0x21 TIF> >0x0D TIF> >0x28 TIF> >0x0D TIF> >0x21 TIF> >0x0D TIF> >0x21 TIF> >0x0D TIF> >0x28 TIF> >0x0D TIF> >0x21 TIF> >0x0D TIF> >0x21 TIF> >0x0D TIF>
 >0x28 TIF> >0x0D TIF> >0x21 TIF> >0x0D TIF> >0x21 TIF> >0x0D TIF> >0x28 TIF> >0x0D TIF> >0x21 TIF> >0x0D TIF> >0x21 TIF> >0x0D TIF> >0x28 TIF> >0x0D TIF> >0x21 TIF> >0x0D TIF> >0x21 TIF> >0x108 TIF>Found SWD-DP with ID 0x1BA01477 >0x0D TIF> >0x28 TIF> >0x0D TIF> >0x28 TIF> >0x0D TIF> >0x28 TIF> >0x0D TIF> >0x28 TIF> >0x0D TIF> >0x21 TIF> >0x0D TIF> >0x28 TIF> >0x0D TIF> >0x28 TIF> >0x0D TIF> >0x21 TIF> >0x0D TIF> >0x21 TIF> >0x0D TIF> >0x21 TIF>AP-IDR: 0x14770011, Type: AHB-AP >0x0D TIF> >0x28 TIF>
 >0x0D TIF> >0x28 TIF> >0x0D TIF> >0x28 TIF> >0x0D TIF> >0x21 TIF> >0x0D TIF> >0x21 TIF> >0x0D TIF> >0x28 TIF> >0x0D TIF> >0x21 TIF> >0x0D TIF> >0x21 TIF>Found Cortex-M3 r1p1, Little endian. -- CPU_ReadMem(4 bytes @ 0xE000EDF0) -- CPU_ReadMem(4 bytes @ 0xE0002000)FPUnit: 6 code (BP) slots and 2 literal slots -- CPU_ReadMem(4 bytes @ 0xE000EDFC) -- CPU_ReadMem(4 bytes @ 0xE0001000) -- CPU_WriteMem(4 bytes @ 0xE0001000) -- CPU_ReadMem(4 bytes @ 0xE000ED88) -- CPU_WriteMem(4 bytes @ 0xE000ED88)
 -- CPU_ReadMem(4 bytes @ 0xE000ED88) -- CPU_WriteMem(4 bytes @ 0xE000ED88)CoreSight components:ROMTbl 0 @ E00FF000 -- CPU_ReadMem(16 bytes @ 0xE00FF000) -- CPU_ReadMem(16 bytes @ 0xE000EFF0) -- CPU_ReadMem(16 bytes @ 0xE000EFE0)ROMTbl 0 [0]: FFF0F000, CID: B105E00D, PID: 001BB000 SCS -- CPU_ReadMem(16 bytes @ 0xE0001FF0) -- CPU_ReadMem(16 bytes @ 0xE0001FE0)ROMTbl 0 [1]: FFF02000, CID: B105E00D, PID: 001BB002 DWT -- CPU_ReadMem(16 bytes @ 0xE0002FF0) -- CPU_ReadMem(16 bytes @ 0xE0002FE0)
ROMTbl 0 [2]: FFF03000, CID: B105E00D, PID: 000BB003 FPB -- CPU_ReadMem(16 bytes @ 0xE0000FF0) -- CPU_ReadMem(16 bytes @ 0xE0000FE0)ROMTbl 0 [3]: FFF01000, CID: B105E00D, PID: 001BB001 ITM -- CPU_ReadMem(16 bytes @ 0xE00FF010) -- CPU_ReadMem(16 bytes @ 0xE0040FF0) -- CPU_ReadMem(16 bytes @ 0xE0040FE0)ROMTbl 0 [4]: FFF41000, CID: B105900D, PID: 001BB923 TPIU-Lite -- CPU_ReadMem(16 bytes @ 0xE0041FF0) -- CPU_ReadMem(16 bytes @ 0xE0041FE0)ROMTbl 0 [5]: FFF42000, CID: B105900D, PID: 101BB924 ETM-M3
 >0x0D TIF> >0x21 TIF>  returns 0x1BA01477 (0072ms, 0191ms total)
T1F0C 000:233 JLINK_GetDLLVersion()  returns 60005 (0000ms, 0191ms total)
T1F0C 000:233 JLINK_CORE_GetFound()  returns 0x30000FF (0000ms, 0191ms total)
T1F0C 000:233 JLINK_GetDebugInfo(0x100) -- Value=0xE00FF000  returns 0x00 (0000ms, 0191ms total)
T1F0C 000:235 JLINK_GetDebugInfo(0x100) -- Value=0xE00FF000  returns 0x00 (0000ms, 0191ms total)
T1F0C 000:235 JLINK_GetDebugInfo(0x101) -- Value=0xE0041000  returns 0x00 (0000ms, 0191ms total)
T1F0C 000:235 JLINK_GetDebugInfo(0x102) -- Value=0x00000000  returns 0x00 (0000ms, 0191ms total)
T1F0C 000:235 JLINK_GetDebugInfo(0x103) -- Value=0xE0040000  returns 0x00 (0000ms, 0191ms total)
T1F0C 000:235 JLINK_GetDebugInfo(0x104) -- Value=0xE0000000  returns 0x00 (0000ms, 0191ms total)
T1F0C 000:236 JLINK_GetDebugInfo(0x105) -- Value=0xE0001000  returns 0x00 (0000ms, 0192ms total)
T1F0C 000:236 JLINK_GetDebugInfo(0x106) -- Value=0xE0002000  returns 0x00 (0000ms, 0192ms total)
T1F0C 000:236 JLINK_GetDebugInfo(0x107) -- Value=0xE000E000  returns 0x00 (0000ms, 0192ms total)
T1F0C 000:236 JLINK_GetDebugInfo(0x10C) -- Value=0xE000EDF0  returns 0x00 (0000ms, 0192ms total)
T1F0C 000:236 JLINK_ReadMemU32(0xE000ED00, 0x0001 Items, ...) -- CPU is running -- CPU_ReadMem(4 bytes @ 0xE000ED00) - Data: 31 C2 1F 41  returns 0x01 (0000ms, 0192ms total)
T1F0C 000:236 JLINK_SetResetType(JLINKARM_RESET_TYPE_NORMAL)  returns JLINKARM_RESET_TYPE_NORMAL (0000ms, 0192ms total)
T1F0C 000:236 JLINK_Reset() -- CPU is running -- CPU_WriteMem(4 bytes @ 0xE000EDF0) -- CPU is running -- CPU_WriteMem(4 bytes @ 0xE000EDFC) >0x35 TIF> -- CPU is running -- CPU_WriteMem(4 bytes @ 0xE000ED0C) -- CPU is running -- CPU_ReadMem(4 bytes @ 0xE000EDF0) -- CPU is running -- CPU_ReadMem(4 bytes @ 0xE000EDF0) -- CPU is running -- CPU_WriteMem(4 bytes @ 0xE000EDF0) -- CPU is running -- CPU_WriteMem(4 bytes @ 0xE000EDFC) -- CPU is running -- CPU_ReadMem(4 bytes @ 0xE000EDF0)
 -- CPU_WriteMem(4 bytes @ 0xE0002000) -- CPU_ReadMem(4 bytes @ 0xE000EDFC) -- CPU_ReadMem(4 bytes @ 0xE0001000) (0013ms, 0205ms total)
T1F0C 000:249 JLINK_Halt()  returns 0x00 (0000ms, 0205ms total)
T1F0C 000:249 JLINK_IsHalted()  returns TRUE (0000ms, 0205ms total)
T1F0C 000:249 JLINK_ReadMemU32(0xE000EDF0, 0x0001 Items, ...) -- CPU_ReadMem(4 bytes @ 0xE000EDF0) - Data: 03 00 03 00  returns 0x01 (0000ms, 0205ms total)
T1F0C 000:249 JLINK_WriteU32(0xE000EDF0, 0xA05F0003) -- CPU_WriteMem(4 bytes @ 0xE000EDF0)  returns 0x00 (0001ms, 0206ms total)
T1F0C 000:250 JLINK_WriteU32(0xE000EDFC, 0x01000000) -- CPU_WriteMem(4 bytes @ 0xE000EDFC)  returns 0x00 (0000ms, 0206ms total)
T1F0C 000:259 JLINK_GetHWStatus(...)  returns 0x00 (0000ms, 0206ms total)
T1F0C 000:266 JLINK_GetNumBPUnits(Type = 0xFFFFFF00)  returns 0x06 (0000ms, 0206ms total)
T1F0C 000:266 JLINK_GetNumBPUnits(Type = 0xF0)  returns 0x2000 (0000ms, 0206ms total)
T1F0C 000:266 JLINK_GetNumWPUnits()  returns 0x04 (0000ms, 0206ms total)
T1F0C 000:271 JLINK_GetSpeed()  returns 0xFA0 (0000ms, 0206ms total)
T1F0C 000:274 JLINK_ReadMemU32(0xE000E004, 0x0001 Items, ...) -- CPU_ReadMem(4 bytes @ 0xE000E004) - Data: 01 00 00 00  returns 0x01 (0000ms, 0206ms total)
T1F0C 000:274 JLINK_ReadMemU32(0xE000E004, 0x0001 Items, ...) -- CPU_ReadMem(4 bytes @ 0xE000E004) - Data: 01 00 00 00  returns 0x01 (0000ms, 0206ms total)
T1F0C 000:274 JLINK_WriteMem(0xE0001000, 0x001C Bytes, ...) - Data: 01 00 00 00 00 00 00 00 00 00 00 00 00 00 00 00 ... -- CPU_WriteMem(28 bytes @ 0xE0001000)  returns 0x1C (0001ms, 0207ms total)
T1F0C 000:275 JLINK_ReadMem (0xE0001000, 0x001C Bytes, ...) -- CPU_ReadMem(28 bytes @ 0xE0001000) - Data: 01 00 00 40 00 00 00 00 00 00 00 00 00 00 00 00 ...  returns 0x00 (0000ms, 0207ms total)
T1F0C 000:275 JLINK_Halt()  returns 0x00 (0000ms, 0207ms total)
T1F0C 000:275 JLINK_IsHalted()  returns TRUE (0000ms, 0207ms total)
T1F0C 000:277 JLINK_WriteMem(0x20000000, 0x0164 Bytes, ...) - Data: 00 BE 0A E0 0D 78 2D 06 68 40 08 24 40 00 00 D3 ... -- CPU_WriteMem(356 bytes @ 0x20000000)  returns 0x164 (0002ms, 0209ms total)
T1F0C 000:279 JLINK_WriteReg(R0, 0x08000000)  returns 0x00 (0000ms, 0209ms total)
T1F0C 000:279 JLINK_WriteReg(R1, 0x00B71B00)  returns 0x00 (0000ms, 0209ms total)
T1F0C 000:279 JLINK_WriteReg(R2, 0x00000001)  returns 0x00 (0000ms, 0209ms total)
T1F0C 000:279 JLINK_WriteReg(R3, 0x00000000)  returns 0x00 (0000ms, 0209ms total)
T1F0C 000:279 JLINK_WriteReg(R4, 0x00000000)  returns 0x00 (0000ms, 0209ms total)
T1F0C 000:279 JLINK_WriteReg(R5, 0x00000000)  returns 0x00 (0000ms, 0209ms total)
T1F0C 000:279 JLINK_WriteReg(R6, 0x00000000)  returns 0x00 (0000ms, 0209ms total)
T1F0C 000:279 JLINK_WriteReg(R7, 0x00000000)  returns 0x00 (0000ms, 0209ms total)
T1F0C 000:279 JLINK_WriteReg(R8, 0x00000000)  returns 0x00 (0000ms, 0209ms total)
T1F0C 000:279 JLINK_WriteReg(R9, 0x20000160)  returns 0x00 (0000ms, 0209ms total)
T1F0C 000:279 JLINK_WriteReg(R10, 0x00000000)  returns 0x00 (0000ms, 0209ms total)
T1F0C 000:279 JLINK_WriteReg(R11, 0x00000000)  returns 0x00 (0000ms, 0209ms total)
T1F0C 000:279 JLINK_WriteReg(R12, 0x00000000)  returns 0x00 (0000ms, 0209ms total)
T1F0C 000:279 JLINK_WriteReg(R13 (SP), 0x20001000)  returns 0x00 (0000ms, 0209ms total)
T1F0C 000:279 JLINK_WriteReg(R14, 0x20000001)  returns 0x00 (0000ms, 0209ms total)
T1F0C 000:279 JLINK_WriteReg(R15 (PC), 0x20000038)  returns 0x00 (0000ms, 0209ms total)
T1F0C 000:279 JLINK_WriteReg(XPSR, 0x01000000)  returns 0x00 (0000ms, 0209ms total)
T1F0C 000:279 JLINK_WriteReg(MSP, 0x20001000)  returns 0x00 (0000ms, 0209ms total)
T1F0C 000:279 JLINK_WriteReg(PSP, 0x20001000)  returns 0x00 (0000ms, 0209ms total)
T1F0C 000:279 JLINK_WriteReg(CFBP, 0x00000000)  returns 0x00 (0000ms, 0209ms total)
T1F0C 000:279 JLINK_SetBPEx(Addr = 0x20000000, Type = 0xFFFFFFF2) -- CPU_ReadMem(2 bytes @ 0x20000000)  returns 0x00000001 (0000ms, 0209ms total)
T1F0C 000:279 JLINK_Go() -- CPU_WriteMem(2 bytes @ 0x20000000) -- CPU_ReadMem(4 bytes @ 0xE0001000) -- CPU_WriteMem(4 bytes @ 0xE0002008) -- CPU_WriteMem(4 bytes @ 0xE000200C) -- CPU_WriteMem(4 bytes @ 0xE0002010) -- CPU_WriteMem(4 bytes @ 0xE0002014) -- CPU_WriteMem(4 bytes @ 0xE0002018) -- CPU_WriteMem(4 bytes @ 0xE000201C) -- CPU_WriteMem(4 bytes @ 0xE0001004) (0003ms, 0212ms total)
T1F0C 000:282 JLINK_IsHalted() -- CPU_ReadMem(2 bytes @ 0x20000000)  returns TRUE (0002ms, 0214ms total)
T1F0C 000:284 JLINK_ReadReg(R15 (PC))  returns 0x20000000 (0000ms, 0212ms total)
T1F0C 000:284 JLINK_ClrBPEx(BPHandle = 0x00000001)  returns 0x00 (0000ms, 0212ms total)
T1F0C 000:284 JLINK_ReadReg(R0)  returns 0x00000000 (0000ms, 0212ms total)
T1F0C 000:284 JLINK_WriteReg(R0, 0x08000000)  returns 0x00 (0000ms, 0212ms total)
T1F0C 000:284 JLINK_WriteReg(R1, 0x00B71B00)  returns 0x00 (0000ms, 0212ms total)
T1F0C 000:284 JLINK_WriteReg(R2, 0x00000001)  returns 0x00 (0000ms, 0212ms total)
T1F0C 000:284 JLINK_WriteReg(R3, 0x00000000)  returns 0x00 (0000ms, 0212ms total)
T1F0C 000:284 JLINK_WriteReg(R4, 0x00000000)  returns 0x00 (0000ms, 0212ms total)
T1F0C 000:284 JLINK_WriteReg(R5, 0x00000000)  returns 0x00 (0000ms, 0212ms total)
T1F0C 000:284 JLINK_WriteReg(R6, 0x00000000)  returns 0x00 (0000ms, 0212ms total)
T1F0C 000:284 JLINK_WriteReg(R7, 0x00000000)  returns 0x00 (0000ms, 0212ms total)
T1F0C 000:284 JLINK_WriteReg(R8, 0x00000000)  returns 0x00 (0000ms, 0212ms total)
T1F0C 000:284 JLINK_WriteReg(R9, 0x20000160)  returns 0x00 (0000ms, 0212ms total)
T1F0C 000:284 JLINK_WriteReg(R10, 0x00000000)  returns 0x00 (0000ms, 0212ms total)
T1F0C 000:284 JLINK_WriteReg(R11, 0x00000000)  returns 0x00 (0000ms, 0212ms total)
T1F0C 000:284 JLINK_WriteReg(R12, 0x00000000)  returns 0x00 (0000ms, 0212ms total)
T1F0C 000:284 JLINK_WriteReg(R13 (SP), 0x20001000)  returns 0x00 (0000ms, 0212ms total)
T1F0C 000:284 JLINK_WriteReg(R14, 0x20000001)  returns 0x00 (0000ms, 0212ms total)
T1F0C 000:284 JLINK_WriteReg(R15 (PC), 0x2000007C)  returns 0x00 (0000ms, 0212ms total)
T1F0C 000:284 JLINK_WriteReg(XPSR, 0x01000000)  returns 0x00 (0000ms, 0212ms total)
T1F0C 000:284 JLINK_WriteReg(MSP, 0x20001000)  returns 0x00 (0000ms, 0212ms total)
T1F0C 000:284 JLINK_WriteReg(PSP, 0x20001000)  returns 0x00 (0000ms, 0212ms total)
T1F0C 000:284 JLINK_WriteReg(CFBP, 0x00000000)  returns 0x00 (0000ms, 0212ms total)
T1F0C 000:284 JLINK_SetBPEx(Addr = 0x20000000, Type = 0xFFFFFFF2)  returns 0x00000002 (0000ms, 0212ms total)
T1F0C 000:284 JLINK_Go() -- CPU_ReadMem(4 bytes @ 0xE0001000) (0001ms, 0213ms total)
T1F0C 000:285 JLINK_IsHalted()  returns FALSE (0001ms, 0214ms total)
T1F0C 000:317 JLINK_IsHalted() -- CPU_ReadMem(2 bytes @ 0x20000000)  returns TRUE (0002ms, 0215ms total)
T1F0C 000:319 JLINK_ReadReg(R15 (PC))  returns 0x20000000 (0000ms, 0213ms total)
T1F0C 000:319 JLINK_ClrBPEx(BPHandle = 0x00000002)  returns 0x00 (0000ms, 0213ms total)
T1F0C 000:319 JLINK_ReadReg(R0)  returns 0x00000000 (0000ms, 0213ms total)
T1F0C 000:372 JLINK_WriteReg(R0, 0x00000001)  returns 0x00 (0000ms, 0213ms total)
T1F0C 000:372 JLINK_WriteReg(R1, 0x00B71B00)  returns 0x00 (0000ms, 0213ms total)
T1F0C 000:372 JLINK_WriteReg(R2, 0x00000001)  returns 0x00 (0000ms, 0213ms total)
T1F0C 000:372 JLINK_WriteReg(R3, 0x00000000)  returns 0x00 (0000ms, 0213ms total)
T1F0C 000:372 JLINK_WriteReg(R4, 0x00000000)  returns 0x00 (0000ms, 0213ms total)
T1F0C 000:372 JLINK_WriteReg(R5, 0x00000000)  returns 0x00 (0000ms, 0213ms total)
T1F0C 000:372 JLINK_WriteReg(R6, 0x00000000)  returns 0x00 (0000ms, 0213ms total)
T1F0C 000:372 JLINK_WriteReg(R7, 0x00000000)  returns 0x00 (0000ms, 0213ms total)
T1F0C 000:372 JLINK_WriteReg(R8, 0x00000000)  returns 0x00 (0000ms, 0213ms total)
T1F0C 000:372 JLINK_WriteReg(R9, 0x20000160)  returns 0x00 (0000ms, 0213ms total)
T1F0C 000:372 JLINK_WriteReg(R10, 0x00000000)  returns 0x00 (0000ms, 0213ms total)
T1F0C 000:372 JLINK_WriteReg(R11, 0x00000000)  returns 0x00 (0000ms, 0213ms total)
T1F0C 000:372 JLINK_WriteReg(R12, 0x00000000)  returns 0x00 (0000ms, 0213ms total)
T1F0C 000:372 JLINK_WriteReg(R13 (SP), 0x20001000)  returns 0x00 (0000ms, 0213ms total)
T1F0C 000:372 JLINK_WriteReg(R14, 0x20000001)  returns 0x00 (0000ms, 0213ms total)
T1F0C 000:373 JLINK_WriteReg(R15 (PC), 0x2000006A)  returns 0x00 (0000ms, 0214ms total)
T1F0C 000:373 JLINK_WriteReg(XPSR, 0x01000000)  returns 0x00 (0000ms, 0214ms total)
T1F0C 000:373 JLINK_WriteReg(MSP, 0x20001000)  returns 0x00 (0000ms, 0214ms total)
T1F0C 000:373 JLINK_WriteReg(PSP, 0x20001000)  returns 0x00 (0000ms, 0214ms total)
T1F0C 000:373 JLINK_WriteReg(CFBP, 0x00000000)  returns 0x00 (0000ms, 0214ms total)
T1F0C 000:373 JLINK_SetBPEx(Addr = 0x20000000, Type = 0xFFFFFFF2)  returns 0x00000003 (0000ms, 0214ms total)
T1F0C 000:373 JLINK_Go() -- CPU_ReadMem(4 bytes @ 0xE0001000) (0001ms, 0215ms total)
T1F0C 000:374 JLINK_IsHalted() -- CPU_ReadMem(2 bytes @ 0x20000000)  returns TRUE (0002ms, 0217ms total)
T1F0C 000:376 JLINK_ReadReg(R15 (PC))  returns 0x20000000 (0000ms, 0215ms total)
T1F0C 000:376 JLINK_ClrBPEx(BPHandle = 0x00000003)  returns 0x00 (0000ms, 0215ms total)
T1F0C 000:376 JLINK_ReadReg(R0)  returns 0x00000000 (0000ms, 0215ms total)
T1F0C 000:389 JLINK_WriteMem(0x20000000, 0x0164 Bytes, ...) - Data: 00 BE 0A E0 0D 78 2D 06 68 40 08 24 40 00 00 D3 ... -- CPU_WriteMem(356 bytes @ 0x20000000)  returns 0x164 (0002ms, 0217ms total)
T1F0C 000:391 JLINK_WriteReg(R0, 0x08000000)  returns 0x00 (0000ms, 0217ms total)
T1F0C 000:391 JLINK_WriteReg(R1, 0x00B71B00)  returns 0x00 (0000ms, 0217ms total)
T1F0C 000:391 JLINK_WriteReg(R2, 0x00000002)  returns 0x00 (0000ms, 0217ms total)
T1F0C 000:391 JLINK_WriteReg(R3, 0x00000000)  returns 0x00 (0000ms, 0217ms total)
T1F0C 000:391 JLINK_WriteReg(R4, 0x00000000)  returns 0x00 (0000ms, 0217ms total)
T1F0C 000:391 JLINK_WriteReg(R5, 0x00000000)  returns 0x00 (0000ms, 0217ms total)
T1F0C 000:391 JLINK_WriteReg(R6, 0x00000000)  returns 0x00 (0000ms, 0217ms total)
T1F0C 000:391 JLINK_WriteReg(R7, 0x00000000)  returns 0x00 (0000ms, 0217ms total)
T1F0C 000:391 JLINK_WriteReg(R8, 0x00000000)  returns 0x00 (0000ms, 0217ms total)
T1F0C 000:391 JLINK_WriteReg(R9, 0x20000160)  returns 0x00 (0000ms, 0217ms total)
T1F0C 000:391 JLINK_WriteReg(R10, 0x00000000)  returns 0x00 (0001ms, 0218ms total)
T1F0C 000:392 JLINK_WriteReg(R11, 0x00000000)  returns 0x00 (0000ms, 0218ms total)
T1F0C 000:392 JLINK_WriteReg(R12, 0x00000000)  returns 0x00 (0000ms, 0218ms total)
T1F0C 000:392 JLINK_WriteReg(R13 (SP), 0x20001000)  returns 0x00 (0000ms, 0218ms total)
T1F0C 000:392 JLINK_WriteReg(R14, 0x20000001)  returns 0x00 (0000ms, 0218ms total)
T1F0C 000:392 JLINK_WriteReg(R15 (PC), 0x20000038)  returns 0x00 (0000ms, 0218ms total)
T1F0C 000:392 JLINK_WriteReg(XPSR, 0x01000000)  returns 0x00 (0000ms, 0218ms total)
T1F0C 000:392 JLINK_WriteReg(MSP, 0x20001000)  returns 0x00 (0000ms, 0218ms total)
T1F0C 000:392 JLINK_WriteReg(PSP, 0x20001000)  returns 0x00 (0000ms, 0218ms total)
T1F0C 000:392 JLINK_WriteReg(CFBP, 0x00000000)  returns 0x00 (0000ms, 0218ms total)
T1F0C 000:392 JLINK_SetBPEx(Addr = 0x20000000, Type = 0xFFFFFFF2) -- CPU_ReadMem(2 bytes @ 0x20000000)  returns 0x00000004 (0001ms, 0219ms total)
T1F0C 000:393 JLINK_Go() -- CPU_WriteMem(2 bytes @ 0x20000000) -- CPU_ReadMem(4 bytes @ 0xE0001000) (0001ms, 0220ms total)
T1F0C 000:394 JLINK_IsHalted() -- CPU_ReadMem(2 bytes @ 0x20000000)  returns TRUE (0002ms, 0222ms total)
T1F0C 000:396 JLINK_ReadReg(R15 (PC))  returns 0x20000000 (0000ms, 0220ms total)
T1F0C 000:396 JLINK_ClrBPEx(BPHandle = 0x00000004)  returns 0x00 (0000ms, 0220ms total)
T1F0C 000:396 JLINK_ReadReg(R0)  returns 0x00000000 (0000ms, 0220ms total)
T1F0C 000:397 JLINK_WriteMem(0x20000164, 0x0400 Bytes, ...) - Data: 88 BA 00 20 39 02 00 08 AD 42 00 08 51 3C 00 08 ... -- CPU_WriteMem(1024 bytes @ 0x20000164)  returns 0x400 (0004ms, 0224ms total)
T1F0C 000:401 JLINK_WriteReg(R0, 0x08000000)  returns 0x00 (0000ms, 0224ms total)
T1F0C 000:401 JLINK_WriteReg(R1, 0x00000400)  returns 0x00 (0000ms, 0224ms total)
T1F0C 000:401 JLINK_WriteReg(R2, 0x20000164)  returns 0x00 (0000ms, 0224ms total)
T1F0C 000:401 JLINK_WriteReg(R3, 0x00000000)  returns 0x00 (0000ms, 0224ms total)
T1F0C 000:401 JLINK_WriteReg(R4, 0x00000000)  returns 0x00 (0000ms, 0224ms total)
T1F0C 000:401 JLINK_WriteReg(R5, 0x00000000)  returns 0x00 (0000ms, 0224ms total)
T1F0C 000:401 JLINK_WriteReg(R6, 0x00000000)  returns 0x00 (0000ms, 0224ms total)
T1F0C 000:401 JLINK_WriteReg(R7, 0x00000000)  returns 0x00 (0000ms, 0224ms total)
T1F0C 000:401 JLINK_WriteReg(R8, 0x00000000)  returns 0x00 (0000ms, 0224ms total)
T1F0C 000:401 JLINK_WriteReg(R9, 0x20000160)  returns 0x00 (0001ms, 0225ms total)
T1F0C 000:402 JLINK_WriteReg(R10, 0x00000000)  returns 0x00 (0000ms, 0225ms total)
T1F0C 000:402 JLINK_WriteReg(R11, 0x00000000)  returns 0x00 (0000ms, 0225ms total)
T1F0C 000:402 JLINK_WriteReg(R12, 0x00000000)  returns 0x00 (0000ms, 0225ms total)
T1F0C 000:402 JLINK_WriteReg(R13 (SP), 0x20001000)  returns 0x00 (0000ms, 0225ms total)
T1F0C 000:402 JLINK_WriteReg(R14, 0x20000001)  returns 0x00 (0000ms, 0225ms total)
T1F0C 000:402 JLINK_WriteReg(R15 (PC), 0x200000F4)  returns 0x00 (0000ms, 0225ms total)
T1F0C 000:402 JLINK_WriteReg(XPSR, 0x01000000)  returns 0x00 (0000ms, 0225ms total)
T1F0C 000:402 JLINK_WriteReg(MSP, 0x20001000)  returns 0x00 (0000ms, 0225ms total)
T1F0C 000:402 JLINK_WriteReg(PSP, 0x20001000)  returns 0x00 (0000ms, 0225ms total)
T1F0C 000:402 JLINK_WriteReg(CFBP, 0x00000000)  returns 0x00 (0000ms, 0225ms total)
T1F0C 000:402 JLINK_SetBPEx(Addr = 0x20000000, Type = 0xFFFFFFF2)  returns 0x00000005 (0000ms, 0225ms total)
T1F0C 000:402 JLINK_Go() -- CPU_ReadMem(4 bytes @ 0xE0001000) (0002ms, 0227ms total)
T1F0C 000:404 JLINK_IsHalted()  returns FALSE (0000ms, 0227ms total)
T1F0C 000:430 JLINK_IsHalted()  returns FALSE (0000ms, 0227ms total)
T1F0C 000:432 JLINK_IsHalted()  returns FALSE (0000ms, 0227ms total)
T1F0C 000:433 JLINK_IsHalted()  returns FALSE (0000ms, 0227ms total)
T1F0C 000:438 JLINK_IsHalted() -- CPU_ReadMem(2 bytes @ 0x20000000)  returns TRUE (0002ms, 0229ms total)
T1F0C 000:440 JLINK_ReadReg(R15 (PC))  returns 0x20000000 (0000ms, 0227ms total)
T1F0C 000:440 JLINK_ClrBPEx(BPHandle = 0x00000005)  returns 0x00 (0000ms, 0227ms total)
T1F0C 000:440 JLINK_ReadReg(R0)  returns 0x00000000 (0000ms, 0227ms total)
T1F0C 000:440 JLINK_WriteMem(0x20000164, 0x0400 Bytes, ...) - Data: 4A 46 31 46 20 46 25 60 4D 46 FF F7 EB FE 58 B1 ... -- CPU_WriteMem(1024 bytes @ 0x20000164)  returns 0x400 (0004ms, 0231ms total)
T1F0C 000:444 JLINK_WriteReg(R0, 0x08000400)  returns 0x00 (0000ms, 0231ms total)
T1F0C 000:444 JLINK_WriteReg(R1, 0x00000400)  returns 0x00 (0000ms, 0231ms total)
T1F0C 000:444 JLINK_WriteReg(R2, 0x20000164)  returns 0x00 (0000ms, 0231ms total)
T1F0C 000:444 JLINK_WriteReg(R3, 0x00000000)  returns 0x00 (0000ms, 0231ms total)
T1F0C 000:444 JLINK_WriteReg(R4, 0x00000000)  returns 0x00 (0000ms, 0231ms total)
T1F0C 000:444 JLINK_WriteReg(R5, 0x00000000)  returns 0x00 (0000ms, 0231ms total)
T1F0C 000:444 JLINK_WriteReg(R6, 0x00000000)  returns 0x00 (0000ms, 0231ms total)
T1F0C 000:444 JLINK_WriteReg(R7, 0x00000000)  returns 0x00 (0000ms, 0231ms total)
T1F0C 000:445 JLINK_WriteReg(R8, 0x00000000)  returns 0x00 (0000ms, 0232ms total)
T1F0C 000:445 JLINK_WriteReg(R9, 0x20000160)  returns 0x00 (0000ms, 0232ms total)
T1F0C 000:445 JLINK_WriteReg(R10, 0x00000000)  returns 0x00 (0000ms, 0232ms total)
T1F0C 000:445 JLINK_WriteReg(R11, 0x00000000)  returns 0x00 (0000ms, 0232ms total)
T1F0C 000:445 JLINK_WriteReg(R12, 0x00000000)  returns 0x00 (0000ms, 0232ms total)
T1F0C 000:445 JLINK_WriteReg(R13 (SP), 0x20001000)  returns 0x00 (0000ms, 0232ms total)
T1F0C 000:445 JLINK_WriteReg(R14, 0x20000001)  returns 0x00 (0000ms, 0232ms total)
T1F0C 000:445 JLINK_WriteReg(R15 (PC), 0x200000F4)  returns 0x00 (0000ms, 0232ms total)
T1F0C 000:445 JLINK_WriteReg(XPSR, 0x01000000)  returns 0x00 (0000ms, 0232ms total)
T1F0C 000:445 JLINK_WriteReg(MSP, 0x20001000)  returns 0x00 (0000ms, 0232ms total)
T1F0C 000:445 JLINK_WriteReg(PSP, 0x20001000)  returns 0x00 (0000ms, 0232ms total)
T1F0C 000:445 JLINK_WriteReg(CFBP, 0x00000000)  returns 0x00 (0000ms, 0232ms total)
T1F0C 000:445 JLINK_SetBPEx(Addr = 0x20000000, Type = 0xFFFFFFF2)  returns 0x00000006 (0000ms, 0232ms total)
T1F0C 000:445 JLINK_Go() -- CPU_ReadMem(4 bytes @ 0xE0001000) (0001ms, 0233ms total)
T1F0C 000:446 JLINK_IsHalted()  returns FALSE (0000ms, 0233ms total)
T1F0C 000:451 JLINK_IsHalted()  returns FALSE (0000ms, 0233ms total)
T1F0C 000:455 JLINK_IsHalted()  returns FALSE (0000ms, 0233ms total)
T1F0C 000:457 JLINK_IsHalted()  returns FALSE (0000ms, 0233ms total)
T1F0C 000:459 JLINK_IsHalted()  returns FALSE (0000ms, 0233ms total)
T1F0C 000:463 JLINK_IsHalted()  returns FALSE (0000ms, 0233ms total)
T1F0C 000:465 JLINK_IsHalted()  returns FALSE (0000ms, 0233ms total)
T1F0C 000:471 JLINK_IsHalted()  returns FALSE (0000ms, 0233ms total)
T1F0C 000:473 JLINK_IsHalted()  returns FALSE (0000ms, 0233ms total)
T1F0C 000:475 JLINK_IsHalted()  returns FALSE (0000ms, 0233ms total)
T1F0C 000:479 JLINK_IsHalted() -- CPU_ReadMem(2 bytes @ 0x20000000)  returns TRUE (0002ms, 0235ms total)
T1F0C 000:481 JLINK_ReadReg(R15 (PC))  returns 0x20000000 (0000ms, 0233ms total)
T1F0C 000:481 JLINK_ClrBPEx(BPHandle = 0x00000006)  returns 0x00 (0000ms, 0233ms total)
T1F0C 000:481 JLINK_ReadReg(R0)  returns 0x00000000 (0000ms, 0233ms total)
T1F0C 000:481 JLINK_WriteMem(0x20000164, 0x0400 Bytes, ...) - Data: 00 0F 1E D0 75 42 29 1E 1E DD C9 F1 00 02 1C E0 ... -- CPU_WriteMem(1024 bytes @ 0x20000164)  returns 0x400 (0004ms, 0237ms total)
T1F0C 000:485 JLINK_WriteReg(R0, 0x08000800)  returns 0x00 (0000ms, 0237ms total)
T1F0C 000:485 JLINK_WriteReg(R1, 0x00000400)  returns 0x00 (0000ms, 0237ms total)
T1F0C 000:485 JLINK_WriteReg(R2, 0x20000164)  returns 0x00 (0000ms, 0237ms total)
T1F0C 000:485 JLINK_WriteReg(R3, 0x00000000)  returns 0x00 (0000ms, 0237ms total)
T1F0C 000:485 JLINK_WriteReg(R4, 0x00000000)  returns 0x00 (0000ms, 0237ms total)
T1F0C 000:485 JLINK_WriteReg(R5, 0x00000000)  returns 0x00 (0000ms, 0237ms total)
T1F0C 000:485 JLINK_WriteReg(R6, 0x00000000)  returns 0x00 (0000ms, 0237ms total)
T1F0C 000:485 JLINK_WriteReg(R7, 0x00000000)  returns 0x00 (0000ms, 0237ms total)
T1F0C 000:485 JLINK_WriteReg(R8, 0x00000000)  returns 0x00 (0000ms, 0237ms total)
T1F0C 000:485 JLINK_WriteReg(R9, 0x20000160)  returns 0x00 (0000ms, 0237ms total)
T1F0C 000:485 JLINK_WriteReg(R10, 0x00000000)  returns 0x00 (0000ms, 0237ms total)
T1F0C 000:485 JLINK_WriteReg(R11, 0x00000000)  returns 0x00 (0000ms, 0237ms total)
T1F0C 000:485 JLINK_WriteReg(R12, 0x00000000)  returns 0x00 (0000ms, 0237ms total)
T1F0C 000:485 JLINK_WriteReg(R13 (SP), 0x20001000)  returns 0x00 (0000ms, 0237ms total)
T1F0C 000:485 JLINK_WriteReg(R14, 0x20000001)  returns 0x00 (0000ms, 0237ms total)
T1F0C 000:485 JLINK_WriteReg(R15 (PC), 0x200000F4)  returns 0x00 (0000ms, 0237ms total)
T1F0C 000:485 JLINK_WriteReg(XPSR, 0x01000000)  returns 0x00 (0000ms, 0237ms total)
T1F0C 000:485 JLINK_WriteReg(MSP, 0x20001000)  returns 0x00 (0001ms, 0238ms total)
T1F0C 000:486 JLINK_WriteReg(PSP, 0x20001000)  returns 0x00 (0000ms, 0238ms total)
T1F0C 000:486 JLINK_WriteReg(CFBP, 0x00000000)  returns 0x00 (0000ms, 0238ms total)
T1F0C 000:486 JLINK_SetBPEx(Addr = 0x20000000, Type = 0xFFFFFFF2)  returns 0x00000007 (0000ms, 0238ms total)
T1F0C 000:486 JLINK_Go() -- CPU_ReadMem(4 bytes @ 0xE0001000) (0001ms, 0239ms total)
T1F0C 000:487 JLINK_IsHalted()  returns FALSE (0000ms, 0239ms total)
T1F0C 000:493 JLINK_IsHalted()  returns FALSE (0000ms, 0239ms total)
T1F0C 000:495 JLINK_IsHalted()  returns FALSE (0000ms, 0239ms total)
T1F0C 000:501 JLINK_IsHalted()  returns FALSE (0000ms, 0239ms total)
T1F0C 000:503 JLINK_IsHalted()  returns FALSE (0000ms, 0239ms total)
T1F0C 000:505 JLINK_IsHalted()  returns FALSE (0000ms, 0239ms total)
T1F0C 000:507 JLINK_IsHalted()  returns FALSE (0000ms, 0239ms total)
T1F0C 000:509 JLINK_IsHalted()  returns FALSE (0000ms, 0239ms total)
T1F0C 000:511 JLINK_IsHalted()  returns FALSE (0000ms, 0239ms total)
T1F0C 000:513 JLINK_IsHalted()  returns FALSE (0000ms, 0239ms total)
T1F0C 000:515 JLINK_IsHalted()  returns FALSE (0000ms, 0239ms total)
T1F0C 000:517 JLINK_IsHalted()  returns FALSE (0000ms, 0239ms total)
T1F0C 000:519 JLINK_IsHalted() -- CPU_ReadMem(2 bytes @ 0x20000000)  returns TRUE (0002ms, 0241ms total)
T1F0C 000:521 JLINK_ReadReg(R15 (PC))  returns 0x20000000 (0000ms, 0239ms total)
T1F0C 000:521 JLINK_ClrBPEx(BPHandle = 0x00000007)  returns 0x00 (0000ms, 0239ms total)
T1F0C 000:521 JLINK_ReadReg(R0)  returns 0x00000000 (0000ms, 0239ms total)
T1F0C 000:521 JLINK_WriteMem(0x20000164, 0x0400 Bytes, ...) - Data: 14 F8 01 5B 2D B1 00 F0 69 F8 00 68 40 5D C0 07 ... -- CPU_WriteMem(1024 bytes @ 0x20000164)  returns 0x400 (0004ms, 0243ms total)
T1F0C 000:525 JLINK_WriteReg(R0, 0x08000C00)  returns 0x00 (0000ms, 0243ms total)
T1F0C 000:525 JLINK_WriteReg(R1, 0x00000400)  returns 0x00 (0000ms, 0243ms total)
T1F0C 000:525 JLINK_WriteReg(R2, 0x20000164)  returns 0x00 (0000ms, 0243ms total)
T1F0C 000:525 JLINK_WriteReg(R3, 0x00000000)  returns 0x00 (0000ms, 0243ms total)
T1F0C 000:525 JLINK_WriteReg(R4, 0x00000000)  returns 0x00 (0000ms, 0243ms total)
T1F0C 000:525 JLINK_WriteReg(R5, 0x00000000)  returns 0x00 (0000ms, 0243ms total)
T1F0C 000:525 JLINK_WriteReg(R6, 0x00000000)  returns 0x00 (0000ms, 0243ms total)
T1F0C 000:525 JLINK_WriteReg(R7, 0x00000000)  returns 0x00 (0000ms, 0243ms total)
T1F0C 000:525 JLINK_WriteReg(R8, 0x00000000)  returns 0x00 (0000ms, 0243ms total)
T1F0C 000:525 JLINK_WriteReg(R9, 0x20000160)  returns 0x00 (0000ms, 0243ms total)
T1F0C 000:525 JLINK_WriteReg(R10, 0x00000000)  returns 0x00 (0000ms, 0243ms total)
T1F0C 000:525 JLINK_WriteReg(R11, 0x00000000)  returns 0x00 (0000ms, 0243ms total)
T1F0C 000:525 JLINK_WriteReg(R12, 0x00000000)  returns 0x00 (0000ms, 0243ms total)
T1F0C 000:525 JLINK_WriteReg(R13 (SP), 0x20001000)  returns 0x00 (0000ms, 0243ms total)
T1F0C 000:525 JLINK_WriteReg(R14, 0x20000001)  returns 0x00 (0000ms, 0243ms total)
T1F0C 000:525 JLINK_WriteReg(R15 (PC), 0x200000F4)  returns 0x00 (0000ms, 0243ms total)
T1F0C 000:525 JLINK_WriteReg(XPSR, 0x01000000)  returns 0x00 (0000ms, 0243ms total)
T1F0C 000:525 JLINK_WriteReg(MSP, 0x20001000)  returns 0x00 (0000ms, 0243ms total)
T1F0C 000:525 JLINK_WriteReg(PSP, 0x20001000)  returns 0x00 (0001ms, 0244ms total)
T1F0C 000:526 JLINK_WriteReg(CFBP, 0x00000000)  returns 0x00 (0000ms, 0244ms total)
T1F0C 000:526 JLINK_SetBPEx(Addr = 0x20000000, Type = 0xFFFFFFF2)  returns 0x00000008 (0000ms, 0244ms total)
T1F0C 000:526 JLINK_Go() -- CPU_ReadMem(4 bytes @ 0xE0001000) (0001ms, 0245ms total)
T1F0C 000:527 JLINK_IsHalted()  returns FALSE (0000ms, 0245ms total)
T1F0C 000:534 JLINK_IsHalted()  returns FALSE (0000ms, 0245ms total)
T1F0C 000:537 JLINK_IsHalted()  returns FALSE (0000ms, 0245ms total)
T1F0C 000:539 JLINK_IsHalted()  returns FALSE (0000ms, 0245ms total)
T1F0C 000:543 JLINK_IsHalted()  returns FALSE (0000ms, 0245ms total)
T1F0C 000:545 JLINK_IsHalted()  returns FALSE (0000ms, 0245ms total)
T1F0C 000:547 JLINK_IsHalted()  returns FALSE (0000ms, 0245ms total)
T1F0C 000:551 JLINK_IsHalted()  returns FALSE (0000ms, 0245ms total)
T1F0C 000:553 JLINK_IsHalted()  returns FALSE (0000ms, 0245ms total)
T1F0C 000:555 JLINK_IsHalted()  returns FALSE (0000ms, 0245ms total)
T1F0C 000:559 JLINK_IsHalted() -- CPU_ReadMem(2 bytes @ 0x20000000)  returns TRUE (0002ms, 0247ms total)
T1F0C 000:561 JLINK_ReadReg(R15 (PC))  returns 0x20000000 (0000ms, 0245ms total)
T1F0C 000:561 JLINK_ClrBPEx(BPHandle = 0x00000008)  returns 0x00 (0000ms, 0245ms total)
T1F0C 000:561 JLINK_ReadReg(R0)  returns 0x00000000 (0000ms, 0245ms total)
T1F0C 000:561 JLINK_WriteMem(0x20000164, 0x0400 Bytes, ...) - Data: 9A 42 21 D1 A2 EB 0C 03 93 43 13 EA CC 13 17 D1 ... -- CPU_WriteMem(1024 bytes @ 0x20000164)  returns 0x400 (0004ms, 0249ms total)
T1F0C 000:565 JLINK_WriteReg(R0, 0x08001000)  returns 0x00 (0000ms, 0249ms total)
T1F0C 000:565 JLINK_WriteReg(R1, 0x00000400)  returns 0x00 (0000ms, 0249ms total)
T1F0C 000:565 JLINK_WriteReg(R2, 0x20000164)  returns 0x00 (0000ms, 0249ms total)
T1F0C 000:565 JLINK_WriteReg(R3, 0x00000000)  returns 0x00 (0000ms, 0249ms total)
T1F0C 000:565 JLINK_WriteReg(R4, 0x00000000)  returns 0x00 (0000ms, 0249ms total)
T1F0C 000:565 JLINK_WriteReg(R5, 0x00000000)  returns 0x00 (0000ms, 0249ms total)
T1F0C 000:565 JLINK_WriteReg(R6, 0x00000000)  returns 0x00 (0000ms, 0249ms total)
T1F0C 000:565 JLINK_WriteReg(R7, 0x00000000)  returns 0x00 (0000ms, 0249ms total)
T1F0C 000:565 JLINK_WriteReg(R8, 0x00000000)  returns 0x00 (0000ms, 0249ms total)
T1F0C 000:565 JLINK_WriteReg(R9, 0x20000160)  returns 0x00 (0000ms, 0249ms total)
T1F0C 000:565 JLINK_WriteReg(R10, 0x00000000)  returns 0x00 (0000ms, 0249ms total)
T1F0C 000:565 JLINK_WriteReg(R11, 0x00000000)  returns 0x00 (0000ms, 0249ms total)
T1F0C 000:565 JLINK_WriteReg(R12, 0x00000000)  returns 0x00 (0000ms, 0249ms total)
T1F0C 000:565 JLINK_WriteReg(R13 (SP), 0x20001000)  returns 0x00 (0000ms, 0249ms total)
T1F0C 000:565 JLINK_WriteReg(R14, 0x20000001)  returns 0x00 (0000ms, 0249ms total)
T1F0C 000:565 JLINK_WriteReg(R15 (PC), 0x200000F4)  returns 0x00 (0000ms, 0249ms total)
T1F0C 000:565 JLINK_WriteReg(XPSR, 0x01000000)  returns 0x00 (0000ms, 0249ms total)
T1F0C 000:565 JLINK_WriteReg(MSP, 0x20001000)  returns 0x00 (0000ms, 0249ms total)
T1F0C 000:565 JLINK_WriteReg(PSP, 0x20001000)  returns 0x00 (0000ms, 0249ms total)
T1F0C 000:565 JLINK_WriteReg(CFBP, 0x00000000)  returns 0x00 (0000ms, 0249ms total)
T1F0C 000:565 JLINK_SetBPEx(Addr = 0x20000000, Type = 0xFFFFFFF2)  returns 0x00000009 (0001ms, 0250ms total)
T1F0C 000:566 JLINK_Go() -- CPU_ReadMem(4 bytes @ 0xE0001000) (0001ms, 0251ms total)
T1F0C 000:567 JLINK_IsHalted()  returns FALSE (0000ms, 0251ms total)
T1F0C 000:571 JLINK_IsHalted()  returns FALSE (0000ms, 0251ms total)
T1F0C 000:575 JLINK_IsHalted()  returns FALSE (0000ms, 0251ms total)
T1F0C 000:577 JLINK_IsHalted()  returns FALSE (0000ms, 0251ms total)
T1F0C 000:579 JLINK_IsHalted()  returns FALSE (0000ms, 0251ms total)
T1F0C 000:581 JLINK_IsHalted()  returns FALSE (0000ms, 0251ms total)
T1F0C 000:583 JLINK_IsHalted()  returns FALSE (0000ms, 0251ms total)
T1F0C 000:585 JLINK_IsHalted()  returns FALSE (0000ms, 0251ms total)
T1F0C 000:587 JLINK_IsHalted()  returns FALSE (0000ms, 0251ms total)
T1F0C 000:589 JLINK_IsHalted()  returns FALSE (0000ms, 0251ms total)
T1F0C 000:591 JLINK_IsHalted()  returns FALSE (0000ms, 0251ms total)
T1F0C 000:595 JLINK_IsHalted()  returns FALSE (0000ms, 0251ms total)
T1F0C 000:597 JLINK_IsHalted()  returns FALSE (0000ms, 0251ms total)
T1F0C 000:599 JLINK_IsHalted() -- CPU_ReadMem(2 bytes @ 0x20000000)  returns TRUE (0002ms, 0253ms total)
T1F0C 000:601 JLINK_ReadReg(R15 (PC))  returns 0x20000000 (0000ms, 0251ms total)
T1F0C 000:601 JLINK_ClrBPEx(BPHandle = 0x00000009)  returns 0x00 (0000ms, 0251ms total)
T1F0C 000:601 JLINK_ReadReg(R0)  returns 0x00000000 (0000ms, 0251ms total)
T1F0C 000:634 JLINK_WriteMem(0x20000164, 0x0400 Bytes, ...) - Data: 00 48 B6 19 52 41 41 EB 01 01 A3 F1 01 03 70 47 ... -- CPU_WriteMem(1024 bytes @ 0x20000164)  returns 0x400 (0003ms, 0254ms total)
T1F0C 000:637 JLINK_WriteReg(R0, 0x08001400)  returns 0x00 (0001ms, 0255ms total)
T1F0C 000:638 JLINK_WriteReg(R1, 0x00000400)  returns 0x00 (0000ms, 0255ms total)
T1F0C 000:638 JLINK_WriteReg(R2, 0x20000164)  returns 0x00 (0000ms, 0255ms total)
T1F0C 000:638 JLINK_WriteReg(R3, 0x00000000)  returns 0x00 (0000ms, 0255ms total)
T1F0C 000:638 JLINK_WriteReg(R4, 0x00000000)  returns 0x00 (0000ms, 0255ms total)
T1F0C 000:638 JLINK_WriteReg(R5, 0x00000000)  returns 0x00 (0000ms, 0255ms total)
T1F0C 000:638 JLINK_WriteReg(R6, 0x00000000)  returns 0x00 (0000ms, 0255ms total)
T1F0C 000:638 JLINK_WriteReg(R7, 0x00000000)  returns 0x00 (0000ms, 0255ms total)
T1F0C 000:638 JLINK_WriteReg(R8, 0x00000000)  returns 0x00 (0000ms, 0255ms total)
T1F0C 000:638 JLINK_WriteReg(R9, 0x20000160)  returns 0x00 (0000ms, 0255ms total)
T1F0C 000:638 JLINK_WriteReg(R10, 0x00000000)  returns 0x00 (0000ms, 0255ms total)
T1F0C 000:638 JLINK_WriteReg(R11, 0x00000000)  returns 0x00 (0000ms, 0255ms total)
T1F0C 000:638 JLINK_WriteReg(R12, 0x00000000)  returns 0x00 (0000ms, 0255ms total)
T1F0C 000:638 JLINK_WriteReg(R13 (SP), 0x20001000)  returns 0x00 (0001ms, 0256ms total)
T1F0C 000:639 JLINK_WriteReg(R14, 0x20000001)  returns 0x00 (0000ms, 0256ms total)
T1F0C 000:639 JLINK_WriteReg(R15 (PC), 0x200000F4)  returns 0x00 (0000ms, 0256ms total)
T1F0C 000:639 JLINK_WriteReg(XPSR, 0x01000000)  returns 0x00 (0000ms, 0256ms total)
T1F0C 000:639 JLINK_WriteReg(MSP, 0x20001000)  returns 0x00 (0000ms, 0256ms total)
T1F0C 000:639 JLINK_WriteReg(PSP, 0x20001000)  returns 0x00 (0000ms, 0256ms total)
T1F0C 000:639 JLINK_WriteReg(CFBP, 0x00000000)  returns 0x00 (0000ms, 0256ms total)
T1F0C 000:639 JLINK_SetBPEx(Addr = 0x20000000, Type = 0xFFFFFFF2)  returns 0x0000000A (0000ms, 0256ms total)
T1F0C 000:639 JLINK_Go() -- CPU_ReadMem(4 bytes @ 0xE0001000) (0001ms, 0257ms total)
T1F0C 000:641 JLINK_IsHalted()  returns FALSE (0000ms, 0258ms total)
T1F0C 000:665 JLINK_IsHalted()  returns FALSE (0000ms, 0258ms total)
T1F0C 000:667 JLINK_IsHalted()  returns FALSE (0000ms, 0258ms total)
T1F0C 000:669 JLINK_IsHalted()  returns FALSE (0000ms, 0258ms total)
T1F0C 000:671 JLINK_IsHalted()  returns FALSE (0000ms, 0258ms total)
T1F0C 000:673 JLINK_IsHalted() -- CPU_ReadMem(2 bytes @ 0x20000000)  returns TRUE (0002ms, 0260ms total)
T1F0C 000:675 JLINK_ReadReg(R15 (PC))  returns 0x20000000 (0000ms, 0258ms total)
T1F0C 000:675 JLINK_ClrBPEx(BPHandle = 0x0000000A)  returns 0x00 (0000ms, 0258ms total)
T1F0C 000:675 JLINK_ReadReg(R0)  returns 0x00000000 (0000ms, 0258ms total)
T1F0C 000:676 JLINK_WriteMem(0x20000164, 0x0400 Bytes, ...) - Data: 21 B1 82 68 42 F4 80 72 82 60 03 E0 82 68 22 F4 ... -- CPU_WriteMem(1024 bytes @ 0x20000164)  returns 0x400 (0004ms, 0262ms total)
T1F0C 000:680 JLINK_WriteReg(R0, 0x08001800)  returns 0x00 (0000ms, 0262ms total)
T1F0C 000:680 JLINK_WriteReg(R1, 0x00000400)  returns 0x00 (0000ms, 0262ms total)
T1F0C 000:680 JLINK_WriteReg(R2, 0x20000164)  returns 0x00 (0001ms, 0263ms total)
T1F0C 000:681 JLINK_WriteReg(R3, 0x00000000)  returns 0x00 (0000ms, 0263ms total)
T1F0C 000:681 JLINK_WriteReg(R4, 0x00000000)  returns 0x00 (0000ms, 0263ms total)
T1F0C 000:681 JLINK_WriteReg(R5, 0x00000000)  returns 0x00 (0000ms, 0263ms total)
T1F0C 000:681 JLINK_WriteReg(R6, 0x00000000)  returns 0x00 (0000ms, 0263ms total)
T1F0C 000:681 JLINK_WriteReg(R7, 0x00000000)  returns 0x00 (0000ms, 0263ms total)
T1F0C 000:681 JLINK_WriteReg(R8, 0x00000000)  returns 0x00 (0000ms, 0263ms total)
T1F0C 000:681 JLINK_WriteReg(R9, 0x20000160)  returns 0x00 (0000ms, 0263ms total)
T1F0C 000:681 JLINK_WriteReg(R10, 0x00000000)  returns 0x00 (0000ms, 0263ms total)
T1F0C 000:681 JLINK_WriteReg(R11, 0x00000000)  returns 0x00 (0000ms, 0263ms total)
T1F0C 000:681 JLINK_WriteReg(R12, 0x00000000)  returns 0x00 (0000ms, 0263ms total)
T1F0C 000:681 JLINK_WriteReg(R13 (SP), 0x20001000)  returns 0x00 (0000ms, 0263ms total)
T1F0C 000:681 JLINK_WriteReg(R14, 0x20000001)  returns 0x00 (0000ms, 0263ms total)
T1F0C 000:682 JLINK_WriteReg(R15 (PC), 0x200000F4)  returns 0x00 (0000ms, 0264ms total)
T1F0C 000:682 JLINK_WriteReg(XPSR, 0x01000000)  returns 0x00 (0000ms, 0264ms total)
T1F0C 000:682 JLINK_WriteReg(MSP, 0x20001000)  returns 0x00 (0000ms, 0264ms total)
T1F0C 000:682 JLINK_WriteReg(PSP, 0x20001000)  returns 0x00 (0000ms, 0264ms total)
T1F0C 000:682 JLINK_WriteReg(CFBP, 0x00000000)  returns 0x00 (0000ms, 0264ms total)
T1F0C 000:682 JLINK_SetBPEx(Addr = 0x20000000, Type = 0xFFFFFFF2)  returns 0x0000000B (0000ms, 0264ms total)
T1F0C 000:682 JLINK_Go() -- CPU_ReadMem(4 bytes @ 0xE0001000) (0001ms, 0265ms total)
T1F0C 000:684 JLINK_IsHalted()  returns FALSE (0000ms, 0266ms total)
T1F0C 000:686 JLINK_IsHalted()  returns FALSE (0000ms, 0266ms total)
T1F0C 000:688 JLINK_IsHalted()  returns FALSE (0000ms, 0266ms total)
T1F0C 000:690 JLINK_IsHalted()  returns FALSE (0000ms, 0266ms total)
T1F0C 000:692 JLINK_IsHalted()  returns FALSE (0000ms, 0266ms total)
T1F0C 000:694 JLINK_IsHalted()  returns FALSE (0000ms, 0266ms total)
T1F0C 000:696 JLINK_IsHalted()  returns FALSE (0000ms, 0266ms total)
T1F0C 000:698 JLINK_IsHalted()  returns FALSE (0000ms, 0266ms total)
T1F0C 000:700 JLINK_IsHalted()  returns FALSE (0000ms, 0266ms total)
T1F0C 000:702 JLINK_IsHalted()  returns FALSE (0000ms, 0266ms total)
T1F0C 000:704 JLINK_IsHalted()  returns FALSE (0000ms, 0266ms total)
T1F0C 000:706 JLINK_IsHalted()  returns FALSE (0000ms, 0266ms total)
T1F0C 000:708 JLINK_IsHalted()  returns FALSE (0000ms, 0266ms total)
T1F0C 000:710 JLINK_IsHalted()  returns FALSE (0000ms, 0266ms total)
T1F0C 000:712 JLINK_IsHalted()  returns FALSE (0000ms, 0266ms total)
T1F0C 000:719 JLINK_IsHalted() -- CPU_ReadMem(2 bytes @ 0x20000000)  returns TRUE (0002ms, 0268ms total)
T1F0C 000:721 JLINK_ReadReg(R15 (PC))  returns 0x20000000 (0000ms, 0266ms total)
T1F0C 000:721 JLINK_ClrBPEx(BPHandle = 0x0000000B)  returns 0x00 (0000ms, 0266ms total)
T1F0C 000:721 JLINK_ReadReg(R0)  returns 0x00000000 (0000ms, 0266ms total)
T1F0C 000:722 JLINK_WriteMem(0x20000164, 0x0400 Bytes, ...) - Data: 0B B0 00 BD 30 00 02 40 04 48 00 40 8C AE 00 20 ... -- CPU_WriteMem(1024 bytes @ 0x20000164)  returns 0x400 (0004ms, 0270ms total)
T1F0C 000:726 JLINK_WriteReg(R0, 0x08001C00)  returns 0x00 (0000ms, 0270ms total)
T1F0C 000:726 JLINK_WriteReg(R1, 0x00000400)  returns 0x00 (0000ms, 0270ms total)
T1F0C 000:726 JLINK_WriteReg(R2, 0x20000164)  returns 0x00 (0000ms, 0270ms total)
T1F0C 000:726 JLINK_WriteReg(R3, 0x00000000)  returns 0x00 (0000ms, 0270ms total)
T1F0C 000:726 JLINK_WriteReg(R4, 0x00000000)  returns 0x00 (0001ms, 0271ms total)
T1F0C 000:727 JLINK_WriteReg(R5, 0x00000000)  returns 0x00 (0000ms, 0271ms total)
T1F0C 000:727 JLINK_WriteReg(R6, 0x00000000)  returns 0x00 (0000ms, 0271ms total)
T1F0C 000:727 JLINK_WriteReg(R7, 0x00000000)  returns 0x00 (0000ms, 0271ms total)
T1F0C 000:727 JLINK_WriteReg(R8, 0x00000000)  returns 0x00 (0000ms, 0271ms total)
T1F0C 000:727 JLINK_WriteReg(R9, 0x20000160)  returns 0x00 (0000ms, 0271ms total)
T1F0C 000:727 JLINK_WriteReg(R10, 0x00000000)  returns 0x00 (0000ms, 0271ms total)
T1F0C 000:727 JLINK_WriteReg(R11, 0x00000000)  returns 0x00 (0000ms, 0271ms total)
T1F0C 000:727 JLINK_WriteReg(R12, 0x00000000)  returns 0x00 (0000ms, 0271ms total)
T1F0C 000:727 JLINK_WriteReg(R13 (SP), 0x20001000)  returns 0x00 (0000ms, 0271ms total)
T1F0C 000:727 JLINK_WriteReg(R14, 0x20000001)  returns 0x00 (0000ms, 0271ms total)
T1F0C 000:727 JLINK_WriteReg(R15 (PC), 0x200000F4)  returns 0x00 (0000ms, 0271ms total)
T1F0C 000:727 JLINK_WriteReg(XPSR, 0x01000000)  returns 0x00 (0001ms, 0272ms total)
T1F0C 000:728 JLINK_WriteReg(MSP, 0x20001000)  returns 0x00 (0000ms, 0272ms total)
T1F0C 000:728 JLINK_WriteReg(PSP, 0x20001000)  returns 0x00 (0000ms, 0272ms total)
T1F0C 000:728 JLINK_WriteReg(CFBP, 0x00000000)  returns 0x00 (0000ms, 0272ms total)
T1F0C 000:728 JLINK_SetBPEx(Addr = 0x20000000, Type = 0xFFFFFFF2)  returns 0x0000000C (0000ms, 0272ms total)
T1F0C 000:728 JLINK_Go() -- CPU_ReadMem(4 bytes @ 0xE0001000) (0002ms, 0274ms total)
T1F0C 000:730 JLINK_IsHalted()  returns FALSE (0000ms, 0274ms total)
T1F0C 000:737 JLINK_IsHalted()  returns FALSE (0000ms, 0274ms total)
T1F0C 000:739 JLINK_IsHalted()  returns FALSE (0000ms, 0274ms total)
T1F0C 000:741 JLINK_IsHalted()  returns FALSE (0000ms, 0274ms total)
T1F0C 000:743 JLINK_IsHalted()  returns FALSE (0000ms, 0274ms total)
T1F0C 000:745 JLINK_IsHalted()  returns FALSE (0000ms, 0274ms total)
T1F0C 000:747 JLINK_IsHalted()  returns FALSE (0000ms, 0274ms total)
T1F0C 000:749 JLINK_IsHalted()  returns FALSE (0000ms, 0274ms total)
T1F0C 000:751 JLINK_IsHalted()  returns FALSE (0000ms, 0274ms total)
T1F0C 000:753 JLINK_IsHalted()  returns FALSE (0000ms, 0274ms total)
T1F0C 000:755 JLINK_IsHalted()  returns FALSE (0000ms, 0274ms total)
T1F0C 000:757 JLINK_IsHalted()  returns FALSE (0000ms, 0274ms total)
T1F0C 000:759 JLINK_IsHalted()  returns FALSE (0000ms, 0274ms total)
T1F0C 000:772 JLINK_IsHalted() -- CPU_ReadMem(2 bytes @ 0x20000000)  returns TRUE (0002ms, 0276ms total)
T1F0C 000:774 JLINK_ReadReg(R15 (PC))  returns 0x20000000 (0000ms, 0274ms total)
T1F0C 000:774 JLINK_ClrBPEx(BPHandle = 0x0000000C)  returns 0x00 (0000ms, 0274ms total)
T1F0C 000:774 JLINK_ReadReg(R0)  returns 0x00000000 (0000ms, 0274ms total)
T1F0C 000:775 JLINK_WriteMem(0x20000164, 0x0400 Bytes, ...) - Data: 06 F0 11 06 66 B9 02 29 08 DB 8E 1E B1 27 7E 43 ... -- CPU_WriteMem(1024 bytes @ 0x20000164)  returns 0x400 (0004ms, 0278ms total)
T1F0C 000:779 JLINK_WriteReg(R0, 0x08002000)  returns 0x00 (0000ms, 0278ms total)
T1F0C 000:779 JLINK_WriteReg(R1, 0x00000400)  returns 0x00 (0000ms, 0278ms total)
T1F0C 000:779 JLINK_WriteReg(R2, 0x20000164)  returns 0x00 (0000ms, 0278ms total)
T1F0C 000:780 JLINK_WriteReg(R3, 0x00000000)  returns 0x00 (0000ms, 0279ms total)
T1F0C 000:780 JLINK_WriteReg(R4, 0x00000000)  returns 0x00 (0000ms, 0279ms total)
T1F0C 000:780 JLINK_WriteReg(R5, 0x00000000)  returns 0x00 (0000ms, 0279ms total)
T1F0C 000:780 JLINK_WriteReg(R6, 0x00000000)  returns 0x00 (0000ms, 0279ms total)
T1F0C 000:780 JLINK_WriteReg(R7, 0x00000000)  returns 0x00 (0000ms, 0279ms total)
T1F0C 000:780 JLINK_WriteReg(R8, 0x00000000)  returns 0x00 (0000ms, 0279ms total)
T1F0C 000:780 JLINK_WriteReg(R9, 0x20000160)  returns 0x00 (0000ms, 0279ms total)
T1F0C 000:780 JLINK_WriteReg(R10, 0x00000000)  returns 0x00 (0000ms, 0279ms total)
T1F0C 000:780 JLINK_WriteReg(R11, 0x00000000)  returns 0x00 (0000ms, 0279ms total)
T1F0C 000:780 JLINK_WriteReg(R12, 0x00000000)  returns 0x00 (0000ms, 0279ms total)
T1F0C 000:780 JLINK_WriteReg(R13 (SP), 0x20001000)  returns 0x00 (0000ms, 0279ms total)
T1F0C 000:780 JLINK_WriteReg(R14, 0x20000001)  returns 0x00 (0000ms, 0279ms total)
T1F0C 000:780 JLINK_WriteReg(R15 (PC), 0x200000F4)  returns 0x00 (0001ms, 0280ms total)
T1F0C 000:781 JLINK_WriteReg(XPSR, 0x01000000)  returns 0x00 (0000ms, 0280ms total)
T1F0C 000:781 JLINK_WriteReg(MSP, 0x20001000)  returns 0x00 (0000ms, 0280ms total)
T1F0C 000:781 JLINK_WriteReg(PSP, 0x20001000)  returns 0x00 (0000ms, 0280ms total)
T1F0C 000:781 JLINK_WriteReg(CFBP, 0x00000000)  returns 0x00 (0000ms, 0280ms total)
T1F0C 000:781 JLINK_SetBPEx(Addr = 0x20000000, Type = 0xFFFFFFF2)  returns 0x0000000D (0000ms, 0280ms total)
T1F0C 000:781 JLINK_Go() -- CPU_ReadMem(4 bytes @ 0xE0001000) (0001ms, 0281ms total)
T1F0C 000:782 JLINK_IsHalted()  returns FALSE (0001ms, 0282ms total)
T1F0C 000:790 JLINK_IsHalted()  returns FALSE (0000ms, 0281ms total)
T1F0C 000:792 JLINK_IsHalted()  returns FALSE (0000ms, 0281ms total)
T1F0C 000:794 JLINK_IsHalted()  returns FALSE (0000ms, 0281ms total)
T1F0C 000:796 JLINK_IsHalted()  returns FALSE (0000ms, 0281ms total)
T1F0C 000:798 JLINK_IsHalted()  returns FALSE (0000ms, 0281ms total)
T1F0C 000:800 JLINK_IsHalted()  returns FALSE (0000ms, 0281ms total)
T1F0C 000:802 JLINK_IsHalted()  returns FALSE (0000ms, 0281ms total)
T1F0C 000:804 JLINK_IsHalted()  returns FALSE (0000ms, 0281ms total)
T1F0C 000:806 JLINK_IsHalted()  returns FALSE (0000ms, 0281ms total)
T1F0C 000:808 JLINK_IsHalted()  returns FALSE (0000ms, 0281ms total)
T1F0C 000:810 JLINK_IsHalted()  returns FALSE (0000ms, 0281ms total)
T1F0C 000:812 JLINK_IsHalted()  returns FALSE (0000ms, 0281ms total)
T1F0C 000:814 JLINK_IsHalted() -- CPU_ReadMem(2 bytes @ 0x20000000)  returns TRUE (0002ms, 0283ms total)
T1F0C 000:816 JLINK_ReadReg(R15 (PC))  returns 0x20000000 (0000ms, 0281ms total)
T1F0C 000:816 JLINK_ClrBPEx(BPHandle = 0x0000000D)  returns 0x00 (0000ms, 0281ms total)
T1F0C 000:816 JLINK_ReadReg(R0)  returns 0x00000000 (0000ms, 0281ms total)
T1F0C 000:817 JLINK_WriteMem(0x20000164, 0x0400 Bytes, ...) - Data: 08 00 02 40 88 01 00 20 00 F0 80 51 11 B1 03 49 ... -- CPU_WriteMem(1024 bytes @ 0x20000164)  returns 0x400 (0004ms, 0285ms total)
T1F0C 000:821 JLINK_WriteReg(R0, 0x08002400)  returns 0x00 (0000ms, 0285ms total)
T1F0C 000:821 JLINK_WriteReg(R1, 0x00000400)  returns 0x00 (0000ms, 0285ms total)
T1F0C 000:821 JLINK_WriteReg(R2, 0x20000164)  returns 0x00 (0000ms, 0285ms total)
T1F0C 000:821 JLINK_WriteReg(R3, 0x00000000)  returns 0x00 (0001ms, 0286ms total)
T1F0C 000:822 JLINK_WriteReg(R4, 0x00000000)  returns 0x00 (0000ms, 0286ms total)
T1F0C 000:822 JLINK_WriteReg(R5, 0x00000000)  returns 0x00 (0000ms, 0286ms total)
T1F0C 000:822 JLINK_WriteReg(R6, 0x00000000)  returns 0x00 (0000ms, 0286ms total)
T1F0C 000:822 JLINK_WriteReg(R7, 0x00000000)  returns 0x00 (0000ms, 0286ms total)
T1F0C 000:822 JLINK_WriteReg(R8, 0x00000000)  returns 0x00 (0000ms, 0286ms total)
T1F0C 000:822 JLINK_WriteReg(R9, 0x20000160)  returns 0x00 (0000ms, 0286ms total)
T1F0C 000:822 JLINK_WriteReg(R10, 0x00000000)  returns 0x00 (0000ms, 0286ms total)
T1F0C 000:822 JLINK_WriteReg(R11, 0x00000000)  returns 0x00 (0000ms, 0286ms total)
T1F0C 000:822 JLINK_WriteReg(R12, 0x00000000)  returns 0x00 (0000ms, 0286ms total)
T1F0C 000:822 JLINK_WriteReg(R13 (SP), 0x20001000)  returns 0x00 (0000ms, 0286ms total)
T1F0C 000:822 JLINK_WriteReg(R14, 0x20000001)  returns 0x00 (0000ms, 0286ms total)
T1F0C 000:822 JLINK_WriteReg(R15 (PC), 0x200000F4)  returns 0x00 (0001ms, 0287ms total)
T1F0C 000:823 JLINK_WriteReg(XPSR, 0x01000000)  returns 0x00 (0000ms, 0287ms total)
T1F0C 000:823 JLINK_WriteReg(MSP, 0x20001000)  returns 0x00 (0000ms, 0287ms total)
T1F0C 000:823 JLINK_WriteReg(PSP, 0x20001000)  returns 0x00 (0000ms, 0287ms total)
T1F0C 000:823 JLINK_WriteReg(CFBP, 0x00000000)  returns 0x00 (0000ms, 0287ms total)
T1F0C 000:823 JLINK_SetBPEx(Addr = 0x20000000, Type = 0xFFFFFFF2)  returns 0x0000000E (0000ms, 0287ms total)
T1F0C 000:823 JLINK_Go() -- CPU_ReadMem(4 bytes @ 0xE0001000) (0001ms, 0288ms total)
T1F0C 000:824 JLINK_IsHalted()  returns FALSE (0001ms, 0289ms total)
T1F0C 000:827 JLINK_IsHalted()  returns FALSE (0000ms, 0288ms total)
T1F0C 000:828 JLINK_IsHalted()  returns FALSE (0000ms, 0288ms total)
T1F0C 000:830 JLINK_IsHalted()  returns FALSE (0000ms, 0288ms total)
T1F0C 000:831 JLINK_IsHalted()  returns FALSE (0000ms, 0288ms total)
T1F0C 000:833 JLINK_IsHalted()  returns FALSE (0000ms, 0288ms total)
T1F0C 000:834 JLINK_IsHalted()  returns FALSE (0000ms, 0288ms total)
T1F0C 000:837 JLINK_IsHalted()  returns FALSE (0000ms, 0288ms total)
T1F0C 000:839 JLINK_IsHalted()  returns FALSE (0000ms, 0288ms total)
T1F0C 000:852 JLINK_IsHalted()  returns FALSE (0000ms, 0288ms total)
T1F0C 000:854 JLINK_IsHalted()  returns FALSE (0000ms, 0288ms total)
T1F0C 000:856 JLINK_IsHalted() -- CPU_ReadMem(2 bytes @ 0x20000000)  returns TRUE (0002ms, 0290ms total)
T1F0C 000:858 JLINK_ReadReg(R15 (PC))  returns 0x20000000 (0000ms, 0288ms total)
T1F0C 000:858 JLINK_ClrBPEx(BPHandle = 0x0000000E)  returns 0x00 (0000ms, 0288ms total)
T1F0C 000:858 JLINK_ReadReg(R0)  returns 0x00000000 (0000ms, 0288ms total)
T1F0C 000:859 JLINK_WriteMem(0x20000164, 0x0400 Bytes, ...) - Data: 03 F0 68 F9 03 F0 94 F9 FF F7 C4 F9 03 F0 9C FB ... -- CPU_WriteMem(1024 bytes @ 0x20000164)  returns 0x400 (0004ms, 0292ms total)
T1F0C 000:863 JLINK_WriteReg(R0, 0x08002800)  returns 0x00 (0000ms, 0292ms total)
T1F0C 000:863 JLINK_WriteReg(R1, 0x00000400)  returns 0x00 (0000ms, 0292ms total)
T1F0C 000:863 JLINK_WriteReg(R2, 0x20000164)  returns 0x00 (0000ms, 0292ms total)
T1F0C 000:863 JLINK_WriteReg(R3, 0x00000000)  returns 0x00 (0000ms, 0292ms total)
T1F0C 000:864 JLINK_WriteReg(R4, 0x00000000)  returns 0x00 (0000ms, 0293ms total)
T1F0C 000:864 JLINK_WriteReg(R5, 0x00000000)  returns 0x00 (0000ms, 0293ms total)
T1F0C 000:864 JLINK_WriteReg(R6, 0x00000000)  returns 0x00 (0000ms, 0293ms total)
T1F0C 000:864 JLINK_WriteReg(R7, 0x00000000)  returns 0x00 (0000ms, 0293ms total)
T1F0C 000:864 JLINK_WriteReg(R8, 0x00000000)  returns 0x00 (0000ms, 0293ms total)
